LTspice 24.1.8 for Windows
Circuit: C:\IIT_KGP_IC_Design\FC_DiffAmp_CMFB\FC_DiffAmp_CMFB.net
Start Time: Fri Jun 13 03:43:03 2025
    --- Expanded Netlist ---
.options logopinfo

M5 vout- vb5 N002 vdd p_65 l=2.0000000000000002e-07 w=9.999999999999999e-06
M7 N015 vb7 0 0 n_65 l=2.0000000000000002e-07 w=9.999999999999999e-06
M11 N014 vb7 0 0 n_65 l=2.0000000000000002e-07 w=9.999999999999999e-06
I2 vb4 0 DC=1.9999999999999998e-05
M27 N011 vout+ N006 vdd p_65 l=3.0000000000000004e-07 w=9.999999999999999e-06
M31 N009 N012 0 0 NMOS 
I4 N001 0 DC=1.9999999999999998e-05
M1 N002 vin+ N010 0 n_65 l=2.0000000000000002e-07 w=7.999999999999999e-05
V1 vdd 0 DC=1.2
M4 N002 vb4 vdd vdd p_65 l=2.0000000000000002e-07 w=9.999999999999999e-06
M6 vout- vb6 N015 0 n_65 l=2.0000000000000002e-07 w=9.999999999999999e-06
M10 vout+ vb6 N014 0 n_65 l=2.0000000000000002e-07 w=9.999999999999999e-06
M13 vb4 vb5 N003 vdd p_65 l=2.0000000000000002e-07 w=1.9999999999999998e-05
M15 vb7 vb5 N004 vdd p_65 l=2.0000000000000002e-07 w=1.9999999999999998e-05
M17 vb7 vb6 N013 0 n_65 l=2.0000000000000002e-07 w=1.9999999999999998e-05
M18 N013 vb7 0 0 n_65 l=2.0000000000000002e-07 w=1.9999999999999998e-05
M20 vb6 vb6 0 0 n_65 l=2.0000000000000002e-07 w=4.9999999999999996e-06
M24 N001 N001 vdd vdd p_65 l=3.0000000000000004e-07 w=9.999999999999999e-06
M28 vb3 vb3 0 0 n_65 l=2.0000000000000002e-07 w=4.9999999999999996e-06
V5 NC_01 0 DC=0.397 AC=(1)
M2 N007 vin- N010 0 n_65 l=2.0000000000000002e-07 w=7.999999999999999e-05
M3 N010 vb3 0 0 n_65 l=2.0000000000000002e-07 w=4.9999999999999996e-06
M9 vout+ vb5 N007 vdd p_65 l=2.0000000000000002e-07 w=9.999999999999999e-06
V2 vin+ 0 DC=0.6
V3 vin- 0 SINE=(0.6,0.001,100000) AC=(1)
M22 N005 vb4 vdd vdd p_65 l=2.0000000000000002e-07 w=9.999999999999999e-06
V4 vref 0 DC=0.6
M23 N006 N001 vdd vdd p_65 l=3.0000000000000004e-07 w=3.9999999999999996e-05
M30 NC_04 NC_05 NC_06 NC_07 PMOS 
M8 N007 vb4 vdd vdd p_65 l=2.0000000000000002e-07 w=9.999999999999999e-06
M14 N003 vb4 vdd vdd p_65 l=2.0000000000000002e-07 w=9.999999999999999e-06
M16 N004 vb4 vdd vdd p_65 l=2.0000000000000002e-07 w=9.999999999999999e-06
M19 vb5 vb5 vdd vdd p_65 l=2.0000000000000002e-07 w=4.9999999999999996e-06
I3 vb5 0 DC=1.9999999999999998e-05
M21 vb6 vb5 N005 vdd p_65 l=2.0000000000000002e-07 w=1.9999999999999998e-05
M25 vb3 vref N006 vdd p_65 l=3.0000000000000004e-07 w=9.999999999999999e-06
M26 N011 vout- N006 vdd p_65 l=3.0000000000000004e-07 w=9.999999999999999e-06
M29 N011 N011 0 0 n_65 l=2.0000000000000002e-07 w=4.9999999999999996e-06
M12 NC_02 N008 N009 NC_03 PMOS 
M32 NC_08 NC_09 0 0 NMOS 
.model PMOS PMOS()
.model n_65 NMOS(level=54 version="4.0" binunit=1 paramchk=1 mobmod=0 capmod=2 igcmod=1 igbmod=1 geomod=1 diomod=1 rdsmod=0 rbodymod=1 rgatemod=1 permod=1 acnqsmod=0 trnqsmod=0 tnom=27 toxe=1.85e-09 toxp=1.2e-09 toxm=1.85e-09 dtox=6.5e-10 epsrox=3.9 wint=5e-09 lint=5.25e-09 ll=0 wl=0 lln=1 wln=1 lw=0 ww=0 lwn=1 wwn=1 lwl=0 wwl=0 xpart=0 toxref=1.85e-09 xl=-3e-08 vth0=0.423 k1=0.4 k2=0.01 k3=0 k3b=0 w0=2.5e-06 dvt0=1 dvt1=2 dvt2=-0.032 dvt0w=0 dvt1w=0 dvt2w=0 dsub=0.1 minv=0.05 voffl=0 dvtp0=1e-09 dvtp1=0.1 lpe0=0 lpeb=0 xj=1.96e-08 ngate=2e+20 ndep=2.54e+18 nsd=2e+20 phin=0 cdsc=0 cdscb=0 cdscd=0 cit=0 voff=-0.13 nfactor=1.9 eta0=0.0058 etab=0 vfb=-0.55 u0=0.0491 ua=6e-10 ub=1.2e-18 uc=0 vsat=124340 a0=1 ags=1e-20 a1=0 a2=1 b0=0 b1=0 keta=0.04 dwg=0 dwb=0 pclm=0.04 pdiblc1=0.001 pdiblc2=0.001 pdiblcb=-0.005 drout=0.5 pvag=1e-20 delta=0.01 pscbe1=814000000 pscbe2=1e-07 fprout=0.2 pdits=0.08 pditsd=0.23 pditsl=2300000 rsh=5 rdsw=165 rsw=85 rdw=85 rdswmin=0 rdwmin=0 rswmin=0 prwg=0 prwb=6.8e-11 wr=1 alpha0=0.074 alpha1=0.005 beta0=30 agidl=0.0002 bgidl=2100000000 cgidl=0.0002 egidl=0.8 aigbacc=0.012 bigbacc=0.0028 cigbacc=0.002 nigbacc=1 aigbinv=0.014 bigbinv=0.004 cigbinv=0.004 eigbinv=1.1 nigbinv=3 aigc=0.012 bigc=0.0028 cigc=0.002 aigsd=0.012 bigsd=0.0028 cigsd=0.002 nigc=1 poxedge=1 pigcd=1 ntox=1 xrcrg1=12 xrcrg2=5 cgso=1.5e-10 cgdo=1.5e-10 cgbo=2.56e-11 cgdl=2.653e-10 cgsl=2.653e-10 ckappas=0.03 ckappad=0.03 acde=1 moin=15 noff=0.9 voffcv=0.02 kt1=-0.11 kt1l=0 kt2=0.022 ute=-1.5 ua1=4.31e-09 ub1=7.61e-18 uc1=-5.6e-11 prt=0 at=33000 fnoimod=1 tnoimod=0 jss=0.0001 jsws=1e-11 jswgs=1e-10 njs=1 ijthsfwd=0.01 ijthsrev=0.001 bvs=10 xjbvs=1 jsd=0.0001 jswd=1e-11 jswgd=1e-10 njd=1 ijthdfwd=0.01 ijthdrev=0.001 bvd=10 xjbvd=1 pbs=1 cjs=0.0005 mjs=0.5 pbsws=1 cjsws=5e-10 mjsws=0.33 pbswgs=1 cjswgs=3e-10 mjswgs=0.33 pbd=1 cjd=0.0005 mjd=0.5 pbswd=1 cjswd=5e-10 mjswd=0.33 pbswgd=1 cjswgd=5e-10 mjswgd=0.33 tpb=0.005 tcj=0.001 tpbsw=0.005 tcjsw=0.001 tpbswg=0.005 tcjswg=0.001 xtis=3 xtid=3 dmcg=0 dmci=0 dmdg=0 dmcgt=0 dwj=0 xgw=0 xgl=0 rshg=0.4 gbmin=1e-10 rbpb=5 rbpd=15 rbps=15 rbdb=15 rbsb=15 ngcon=1)
.model p_65 PMOS(level=54 version="4.0" binunit=1 paramchk=1 mobmod=0 capmod=2 igcmod=1 igbmod=1 geomod=1 diomod=1 rdsmod=0 rbodymod=1 rgatemod=1 permod=1 acnqsmod=0 trnqsmod=0 tnom=27 toxe=1.95e-09 toxp=1.2e-09 toxm=1.95e-09 dtox=7.5e-10 epsrox=3.9 wint=5e-09 lint=5.25e-09 ll=0 wl=0 lln=1 wln=1 lw=0 ww=0 lwn=1 wwn=1 lwl=0 wwl=0 xpart=0 toxref=1.95e-09 xl=-3e-08 vth0=-0.365 k1=0.4 k2=-0.01 k3=0 k3b=0 w0=2.5e-06 dvt0=1 dvt1=2 dvt2=-0.032 dvt0w=0 dvt1w=0 dvt2w=0 dsub=0.1 minv=0.05 voffl=0 dvtp0=1e-09 dvtp1=0.05 lpe0=0 lpeb=0 xj=1.96e-08 ngate=2e+20 ndep=1.87e+18 nsd=2e+20 phin=0 cdsc=0 cdscb=0 cdscd=0 cit=0 voff=-0.126 nfactor=1.9 eta0=0.0058 etab=0 vfb=0.55 u0=0.00574 ua=2e-09 ub=5e-19 uc=0 vsat=70000 a0=1 ags=1e-20 a1=0 a2=1 b0=-1e-20 b1=0 keta=-0.047 dwg=0 dwb=0 pclm=0.12 pdiblc1=0.001 pdiblc2=0.001 pdiblcb=3.4e-08 drout=0.56 pvag=1e-20 delta=0.01 pscbe1=814000000 pscbe2=9.58e-07 fprout=0.2 pdits=0.08 pditsd=0.23 pditsl=2300000 rsh=5 rdsw=165 rsw=85 rdw=85 rdswmin=0 rdwmin=0 rswmin=0 prwg=3.22e-08 prwb=6.8e-11 wr=1 alpha0=0.074 alpha1=0.005 beta0=30 agidl=0.0002 bgidl=2100000000 cgidl=0.0002 egidl=0.8 aigbacc=0.012 bigbacc=0.0028 cigbacc=0.002 nigbacc=1 aigbinv=0.014 bigbinv=0.004 cigbinv=0.004 eigbinv=1.1 nigbinv=3 aigc=0.69 bigc=0.0012 cigc=0.0008 aigsd=0.0087 bigsd=0.0012 cigsd=0.0008 nigc=1 poxedge=1 pigcd=1 ntox=1 xrcrg1=12 xrcrg2=5 cgso=1.5e-10 cgdo=1.5e-10 cgbo=2.56e-11 cgdl=2.653e-10 cgsl=2.653e-10 ckappas=0.03 ckappad=0.03 acde=1 moin=15 noff=0.9 voffcv=0.02 kt1=-0.11 kt1l=0 kt2=0.022 ute=-1.5 ua1=4.31e-09 ub1=7.61e-18 uc1=-5.6e-11 prt=0 at=33000 fnoimod=1 tnoimod=0 jss=0.0001 jsws=1e-11 jswgs=1e-10 njs=1 ijthsfwd=0.01 ijthsrev=0.001 bvs=10 xjbvs=1 jsd=0.0001 jswd=1e-11 jswgd=1e-10 njd=1 ijthdfwd=0.01 ijthdrev=0.001 bvd=10 xjbvd=1 pbs=1 cjs=0.0005 mjs=0.5 pbsws=1 cjsws=5e-10 mjsws=0.33 pbswgs=1 cjswgs=3e-10 mjswgs=0.33 pbd=1 cjd=0.0005 mjd=0.5 pbswd=1 cjswd=5e-10 mjswd=0.33 pbswgd=1 cjswgd=5e-10 mjswgd=0.33 tpb=0.005 tcj=0.001 tpbsw=0.005 tcjsw=0.001 tpbswg=0.005 tcjswg=0.001 xtis=3 xtid=3 dmcg=0 dmci=0 dmdg=0 dmcgt=0 dwj=0 xgw=0 xgl=0 rshg=0.4 gbmin=1e-10 rbpb=5 rbpd=15 rbps=15 rbdb=15 rbsb=15 ngcon=1)
.model NMOS NMOS()

.end

Options: logopinfo
solver = Normal
Maximum thread count: 12
tnom = 27
temp = 27
method = modified trap
WARNING: Node n008 is floating.
WARNING: Node nc_03 is floating.
WARNING: Node nc_05 is floating.
WARNING: Node nc_06 is floating.
WARNING: Node nc_07 is floating.
WARNING: Node n012 is floating.
WARNING: Node nc_09 is floating.

Direct Newton iteration failed to find .op point.  (Use ".option noopiter" to skip.)
Starting Gmin stepping
Gmin = 10
Gmin = 1.07374
Gmin = 0.115292
Gmin = 0.0123794
Gmin = 0.00132923
Gmin = 0.000142725
Gmin = 1.5325e-05
Gmin = 1.6455e-06
Gmin = 1.76685e-07
Gmin = 1.89714e-08
Gmin = 2.03704e-09
Gmin = 2.18725e-10
Gmin = 2.34854e-11
Gmin = 2.52173e-12
Gmin = 2.70769e-13
Gmin = 0
Gmin stepping succeeded in finding the operating point.

Semiconductor Device Operating Points:
                        --- MOSFET Transistors ---
Name:          M31         M32         M12         M30
Model:         nmos        nmos        pmos        pmos
Id:          0.00e+00    0.00e+00    0.00e+00    0.00e+00
Vgs:         0.00e+00    0.00e+00    0.00e+00    0.00e+00
Vds:         0.00e+00    0.00e+00    0.00e+00    0.00e+00
Vbs:         0.00e+00    0.00e+00    0.00e+00    0.00e+00
Vth:         0.00e+00    0.00e+00   -0.00e+00   -0.00e+00
Vdsat:       0.00e+00    0.00e+00    0.00e+00    0.00e+00
Gm:          0.00e+00    0.00e+00    0.00e+00    0.00e+00
Gds:         0.00e+00    0.00e+00    0.00e+00    0.00e+00
Gmb:         0.00e+00    0.00e+00    0.00e+00    0.00e+00
Cbd:         0.00e+00    0.00e+00    0.00e+00    0.00e+00
Cbs:         0.00e+00    0.00e+00    0.00e+00    0.00e+00
Cgsov:       0.00e+00    0.00e+00    0.00e+00    0.00e+00
Cgdov:       0.00e+00    0.00e+00    0.00e+00    0.00e+00
Cgbov:       0.00e+00    0.00e+00    0.00e+00    0.00e+00
Cgs:         0.00e+00    0.00e+00    0.00e+00    0.00e+00
Cgd:         0.00e+00    0.00e+00    0.00e+00    0.00e+00
Cgb:        -0.00e+00   -0.00e+00   -0.00e+00   -0.00e+00

                        --- BSIM4 MOSFETS ---
Name:       M1          M2          M3          M6          M7
Model:     n_65        n_65        n_65        n_65        n_65
Id:      9.85e-06    9.85e-06    1.97e-05    1.02e-05    1.02e-05
Vgs:     3.00e-01    3.00e-01    3.98e-01    3.42e-01    3.37e-01
Vds:     8.22e-01    8.22e-01    3.00e-01    5.30e-01    5.66e-02
Vbs:    -3.00e-01   -3.00e-01    0.00e+00   -5.66e-02    0.00e+00
Vth:     4.83e-01    4.83e-01    4.23e-01    4.35e-01    4.23e-01
Vdsat:   4.39e-02    4.39e-02    6.32e-02    4.94e-02    5.01e-02
Gm:      2.37e-04    2.37e-04    3.71e-04    2.15e-04    2.08e-04
Gds:     1.22e-06    1.22e-06    2.60e-06    1.22e-06    4.81e-05
Gmb      5.02e-05    5.02e-05    8.61e-05    4.91e-05    4.88e-05
Cbd:     3.12e-14    3.12e-14    2.29e-15    4.29e-15    4.91e-15
Cbs:     5.87e-14    5.87e-14    4.00e-15    7.86e-15    8.00e-15

Name:      M10         M11         M17         M18         M20
Model:     n_65        n_65        n_65        n_65        n_65
Id:      1.02e-05    1.02e-05    2.02e-05    2.02e-05    2.02e-05
Vgs:     3.42e-01    3.37e-01    3.43e-01    3.37e-01    3.99e-01
Vds:     5.30e-01    5.66e-02    2.82e-01    5.56e-02    3.99e-01
Vbs:    -5.66e-02    0.00e+00   -5.56e-02    0.00e+00    0.00e+00
Vth:     4.35e-01    4.23e-01    4.35e-01    4.23e-01    4.23e-01
Vdsat:   4.94e-02    5.01e-02    4.95e-02    5.01e-02    6.35e-02
Gm:      2.15e-04    2.08e-04    4.28e-04    4.14e-04    3.80e-04
Gds:     1.22e-06    4.81e-05    2.91e-06    1.01e-04    2.35e-06
Gmb      4.91e-05    4.88e-05    9.78e-05    9.72e-05    8.82e-05
Cbd:     4.29e-15    4.91e-15    9.09e-15    9.82e-15    2.24e-15
Cbs:     7.86e-15    8.00e-15    1.57e-14    1.60e-14    4.00e-15

Name:      M28         M29          M4          M5          M8
Model:     n_65        n_65        p_65        p_65        p_65
Id:      1.99e-05    4.69e-05   -2.00e-05   -1.02e-05   -2.00e-05
Vgs:     3.98e-01    4.46e-01   -4.62e-01   -4.13e-01   -4.62e-01
Vds:     3.98e-01    4.46e-01   -7.82e-02   -5.35e-01   -7.82e-02
Vbs:     0.00e+00    0.00e+00    0.00e+00    7.82e-02    0.00e+00
Vth:     4.23e-01    4.22e-01   -3.65e-01   -3.79e-01   -3.65e-01
Vdsat:   6.33e-02    8.11e-02   -1.30e-01   -9.19e-02   -1.30e-01
Gm:      3.76e-04    7.73e-04    2.20e-04    1.78e-04    2.20e-04
Gds:     2.32e-06    4.88e-06    1.47e-04    1.22e-06    1.47e-04
Gmb      8.71e-05    1.79e-04    4.72e-05    3.52e-05    4.72e-05
Cbd:     2.24e-15    2.21e-15    4.88e-15    4.27e-15    4.88e-15
Cbs:     4.00e-15    4.00e-15    8.00e-15    7.80e-15    8.00e-15

Name:       M9         M13         M14         M15         M16
Model:     p_65        p_65        p_65        p_65        p_65
Id:     -1.02e-05   -2.00e-05   -2.00e-05   -2.02e-05   -2.02e-05
Vgs:    -4.13e-01   -4.13e-01   -4.62e-01   -4.12e-01   -4.62e-01
Vds:    -5.35e-01   -3.84e-01   -7.81e-02   -7.83e-01   -7.98e-02
Vbs:     7.82e-02    7.81e-02    0.00e+00    7.98e-02    0.00e+00
Vth:    -3.79e-01   -3.80e-01   -3.65e-01   -3.79e-01   -3.65e-01
Vdsat:  -9.19e-02   -9.17e-02   -1.30e-01   -9.13e-02   -1.30e-01
Gm:      1.78e-04    3.52e-04    2.20e-04    3.56e-04    2.24e-04
Gds:     1.22e-06    2.67e-06    1.47e-04    2.24e-06    1.43e-04
Gmb      3.52e-05    6.93e-05    4.71e-05    7.02e-05    4.79e-05
Cbd:     4.27e-15    8.82e-15    4.88e-15    8.14e-15    4.87e-15
Cbs:     7.80e-15    1.56e-14    8.00e-15    1.56e-14    8.00e-15

Name:      M19         M21         M22         M23         M24
Model:     p_65        p_65        p_65        p_65        p_65
Id:     -2.00e-05   -2.02e-05   -2.02e-05   -6.69e-05   -2.00e-05
Vgs:    -4.92e-01   -4.12e-01   -4.62e-01   -4.77e-01   -4.77e-01
Vds:    -4.92e-01   -7.22e-01   -7.96e-02   -1.04e-01   -4.77e-01
Vbs:     0.00e+00    7.96e-02    0.00e+00    0.00e+00    0.00e+00
Vth:    -3.64e-01   -3.79e-01   -3.65e-01   -3.65e-01   -3.65e-01
Vdsat:  -1.53e-01   -9.13e-02   -1.30e-01   -1.40e-01   -1.40e-01
Gm:      2.37e-04    3.56e-04    2.24e-04    7.30e-04    2.56e-04
Gds:     2.07e-06    2.27e-06    1.43e-04    2.82e-04    1.37e-06
Gmb      4.90e-05    7.01e-05    4.78e-05    1.55e-04    5.27e-05
Cbd:     2.19e-15    8.23e-15    4.88e-15    1.94e-14    4.40e-15
Cbs:     4.00e-15    1.56e-14    8.00e-15    3.20e-14    8.00e-15

Name:      M25         M26         M27
Model:     p_65        p_65        p_65
Id:     -1.99e-05   -2.35e-05   -2.35e-05
Vgs:    -4.96e-01   -5.09e-01   -5.09e-01
Vds:    -6.98e-01   -6.50e-01   -6.50e-01
Vbs:     1.04e-01    1.04e-01    1.04e-01
Vth:    -3.85e-01   -3.85e-01   -3.85e-01
Vdsat:  -1.42e-01   -1.52e-01   -1.52e-01
Gm:      2.55e-04    2.83e-04    2.83e-04
Gds:     1.16e-06    1.38e-06    1.38e-06
Gmb      4.99e-05    5.54e-05    5.54e-05
Cbd:     4.12e-15    4.15e-15    4.15e-15
Cbs:     7.74e-15    7.74e-15    7.74e-15



Simulation Failed: Matrix is singular

Total elapsed time: 1.654 seconds.

Files loaded:
C:\IIT_KGP_IC_Design\FC_DiffAmp_CMFB\FC_DiffAmp_CMFB.net
C:\Users\srija\AppData\Local\LTspice\lib\cmp\standard.mos
C:\Users\srija\AppData\Local\LTspice\lib\cmp\65nm_bulk.mos

